Freq(Hz),Gain(dB),Phase
2361.000000,-25.119576,29.497253
2361.000000,-25.123489,29.926554
2361.000000,-25.217964,29.458199
2472.270501,-25.378845,42.282265
2549.349158,-26.460632,24.376295
2588.785021,-25.733139,35.412022
2649.085570,-25.653622,30.419506
2710.790700,-25.559288,32.514950
2752.723901,-25.850901,26.535028
2838.546330,-25.220631,32.569984
2972.322897,-24.763340,33.172958
2972.322897,-24.934238,31.380276
2972.322897,-24.677826,34.282646
3112.404159,-24.075422,40.098179
3209.440438,-24.591835,42.537315
3259.087248,-24.519764,45.818893
3335.001142,-25.382742,40.650780
3412.683298,-25.445587,45.787312
3465.474070,-25.439436,41.971664
3573.518107,-25.249895,41.156441
3741.932827,-24.768414,39.785156
3741.932827,-24.803005,40.280510
3741.932827,-24.712181,39.969658
3918.284688,-24.010605,40.461227
4040.446126,-23.637583,43.188107
4102.947756,-23.145191,45.275127
4198.517687,-23.791170,49.065300
4296.313727,-23.599083,50.777954
4362.773371,-24.143677,47.839142
4498.792755,-24.073383,48.909008
4710.814325,-23.417931,47.551285
4710.814325,-23.612278,46.813148
4710.814325,-23.565775,47.662102
4932.828164,-22.836483,47.642860
5086.620303,-23.218296,48.152641
5165.305194,-22.569256,48.899982
5285.620608,-22.628910,50.102348
5408.738528,-22.223761,51.336411
5492.406263,-22.626783,51.153931
5663.644521,-22.215557,50.952423
5930.563864,-21.958586,51.276443
5930.563864,-22.004505,52.076904
5930.563864,-21.787100,51.971306
6210.062728,-20.903574,55.412567
6403.675559,-21.112286,58.747105
6502.733968,-20.810726,60.558521
6654.202100,-21.768631,57.346359
6809.198378,-21.272104,60.026012
6914.529817,-21.272902,58.971481
7130.106011,-20.819782,58.274460
7466.137555,-20.820007,59.242298
7466.137555,-20.589603,59.970222
7466.137555,-20.368488,59.507462
7818.005778,-20.093109,59.163258
8061.749891,-19.702671,59.519882
8186.457039,-19.217176,60.054710
8377.144119,-19.560726,63.345039
8572.272873,-19.186581,63.941044
8704.877297,-19.654766,62.561272
8976.271647,-19.196644,63.152176
9399.310296,-18.793058,63.793293
9399.310296,-18.838150,63.441483
9399.310296,-18.605167,63.437607
9842.286143,-18.334871,62.952553
10149.141801,-18.427555,62.940678
10306.138799,-17.822739,63.748375
10546.199610,-17.746677,64.669563
10791.852156,-17.218782,65.744370
10958.791236,-17.663704,65.553528
11300.456479,-17.299080,65.784836
11833.030585,-17.108109,63.567917
11833.030585,-17.130037,64.417038
11833.030585,-16.912815,64.643326
12390.704136,-15.848911,66.038422
12777.012521,-15.927355,68.456039
12974.660031,-15.514463,69.915024
13276.878687,-16.551842,68.750626
13586.136920,-15.968611,69.595428
13796.300769,-16.066647,68.569733
14226.431827,-15.487647,67.706596
14896.902903,-15.496739,68.895859
14896.902903,-15.234234,68.821991
14896.902903,-14.942032,68.092087
15598.972307,-14.788601,66.242844
16085.305750,-14.407832,67.120377
16334.129223,-13.889702,66.774742
16714.599969,-14.139641,70.501480
17103.933017,-13.657755,69.945732
17368.513627,-14.189558,69.228363
17910.016546,-13.693411,68.071548
18754.089621,-13.296664,69.279236
18754.089621,-13.343566,68.526375
18754.089621,-13.089148,68.088707
19637.942635,-12.922739,66.365326
20250.200165,-12.429802,67.112411
20563.450358,-12.051298,67.369446
21042.434649,-12.506857,70.318886
21532.575917,-12.198214,68.291107
21865.663171,-12.308105,67.036499
22547.374955,-11.642554,66.917526
23610.000000,-11.866279,66.905701
23610.000000,-11.770546,65.137787
23610.000000,-11.451207,65.377396
24722.705019,-10.711167,66.201004
25493.491582,-10.856787,64.817009
25887.850210,-10.057653,65.855316
26490.855706,-10.436484,67.152206
27107.907003,-9.592522,67.883286
27527.239011,-10.168970,67.453949
28385.463301,-9.856331,67.184944
29723.228972,-9.903462,64.881470
29723.228972,-9.777832,65.026566
29723.228972,-9.620027,65.604355
31124.041597,-8.718465,64.927185
32094.404388,-8.830622,67.426582
32590.872487,-8.509310,66.786560
33350.011428,-9.440908,65.549240
34126.832987,-8.732594,64.785614
34654.740708,-8.684474,64.241959
35735.181075,-8.059451,62.704575
37419.328274,-8.359835,64.771179
37419.328274,-7.990298,64.007790
37419.328274,-7.661059,62.606377
39182.846884,-7.618591,60.863342
40404.461261,-7.268341,60.785999
41029.477566,-6.867543,61.273975
41985.176871,-7.270553,63.854912
42963.137271,-6.836157,61.401398
43627.733717,-7.155181,59.901657
44987.927551,-6.635444,58.523865
47108.143256,-6.428766,60.760490
47108.143256,-6.389960,59.146599
47108.143256,-6.132328,58.500328
49328.281649,-6.023428,56.465454
50866.203031,-5.749919,56.442272
51653.051941,-5.344314,55.800064
52856.206081,-5.389703,57.978409
54087.385281,-4.921933,56.982552
54924.062635,-5.276031,56.862194
56636.445218,-5.122443,55.419792
59305.638647,-5.058578,53.643463
59305.638647,-4.981990,53.153229
59305.638647,-4.944721,52.299999
62100.627288,-4.211234,52.429710
64036.755598,-4.316706,53.847389
65027.339685,-4.108685,52.989902
66542.021007,-4.779635,51.985626
68091.983788,-4.288120,49.929604
69145.298170,-4.217884,49.655899
71301.060118,-3.762124,47.334076
74661.375556,-3.982600,49.744797
74661.375556,-3.731853,48.528717
74661.375556,-3.506857,47.071285
78180.057782,-3.470669,45.186066
80617.498911,-3.215120,45.653397
81864.570391,-2.947400,44.614834
83771.441198,-3.269521,47.811760
85722.728731,-2.981253,43.896420
87048.772973,-3.196645,44.004997
89762.716471,-2.831218,41.111084
93993.102967,-2.727213,43.106178
93993.102967,-2.713671,42.200714
93993.102967,-2.512516,41.312408
98422.861437,-2.416967,37.933167
101491.418014,-2.301765,38.986076
103061.387991,-2.026212,37.145203
105461.996106,-2.102941,40.787971
107918.521568,-1.869251,37.394028
109587.912361,-2.114004,38.360207
113004.564797,-2.039447,35.451797
118330.305859,-1.925020,35.416416
118330.305859,-1.942068,34.268402
118330.305859,-1.887576,33.474327
123907.041364,-1.478283,33.378540
127770.125217,-1.625766,33.124371
129746.600317,-1.505701,32.720894
132768.786877,-1.839525,32.975113
135861.369205,-1.610018,29.404575
137963.007697,-1.571191,29.773533
142264.318272,-1.305183,28.153942
148969.029031,-1.434865,29.211636
148969.029031,-1.301276,28.377136
148969.029031,-1.180044,27.031521
155989.723074,-1.161562,25.017952
160853.057504,-1.044123,25.721151
163341.292233,-0.912876,24.646717
167145.999693,-1.118489,27.248091
171039.330173,-0.970794,23.768520
173685.136277,-1.060077,23.592386
179100.165464,-0.895189,21.738129
187540.896218,-0.867793,23.809958
187540.896218,-0.847949,22.162418
187540.896218,-0.768870,21.226187
196379.426357,-0.699154,19.318409
202502.001657,-0.642317,20.330574
205634.503588,-0.580170,19.267595
210424.346493,-0.775911,20.991760
215325.759171,-0.643639,17.476181
218656.631711,-0.585747,17.836931
225473.749559,-0.518806,16.011086
236100.000000,-0.576318,17.198242
236100.000000,-0.484427,15.709991
236100.000000,-0.460801,14.940197
247227.050194,-0.416038,14.939960
254934.915825,-0.370205,14.338379
258878.502109,-0.327591,14.299421
264908.557060,-0.415750,15.081215
271079.070035,-0.369941,14.170963
275272.390118,-0.392576,13.499841
283854.633013,-0.377889,11.347181
297232.289724,-0.313131,12.013721
297232.289724,-0.324911,11.108047
297232.289724,-0.307180,10.088654
311240.415973,-0.227257,9.999834
320944.043886,-0.281721,10.025310
325908.724872,-0.238891,9.305203
333500.114285,-0.290003,8.914837
341268.329873,-0.259289,8.310199
346547.407085,-0.234206,7.975440
357351.810755,-0.198058,6.958304
374193.282740,-0.189239,6.716915
374193.282740,-0.190522,6.428353
374193.282740,-0.154711,5.840986
391828.468846,-0.117316,4.820989
404044.612612,-0.123900,5.674455
410294.775667,-0.096292,4.135828
419851.768710,-0.155278,5.096592
429631.372717,-0.122812,3.298481
436277.337171,-0.127539,3.798138
449879.275511,-0.107683,2.254502
471081.432564,-0.093171,-2.677180
471081.432564,-0.079370,1.998835
471081.432564,-0.070103,1.504106
493282.816494,-0.040919,-1.244295
508662.030316,-0.072734,-1.494856
516530.519414,-0.039955,-1.046338
528562.060815,-0.069262,-2.225022
540873.852818,-0.046217,-1.343159
549240.626354,-0.048712,-1.924799
566364.452180,0.026696,-2.045334
593056.386479,-0.041373,-2.477139
593056.386479,-0.067414,-2.417629
593056.386479,-0.033700,-2.763391
604512.000000,-0.057531,-3.177380
604512.000000,-0.080615,-3.333417
604512.000000,0.024959,-2.680267
