Freq(Hz),Gain(dB),Phase
228.0,-0.376083,-10.586646
228.0,-0.275305,-13.371795
228.0,-0.335862,-14.91304
238.745308,-0.452679,-10.105575
246.188737,-0.399031,-16.046661
249.997028,-0.434792,-12.66606
261.779025,-0.33486,-15.202724
265.828483,-0.359259,-17.752014
274.116291,-0.288703,-16.198715
287.034993,-0.435319,-13.500568
287.034993,-0.495098,-15.87774
287.034993,-0.44715,-17.006851
300.562536,-0.599049,-15.731507
309.933257,-0.485042,-18.848558
314.727612,-0.522099,-18.31156
329.560267,-0.559385,-18.590309
334.658233,-0.586133,-18.905066
345.091964,-0.781821,-18.964088
361.355647,-0.728153,-21.461617
361.355647,-0.823114,-20.086384
361.355647,-0.617838,-19.508408
378.385814,-0.816835,-20.724854
390.182853,-0.926917,-21.381393
396.218588,-1.017302,-23.299349
414.891795,-0.993097,-22.541172
421.309753,-0.888568,-28.934212
434.445043,-1.1667,-20.376879
454.919807,-1.301505,-23.525152
454.919807,-1.193305,-30.434465
454.919807,-1.010885,-23.046955
476.359517,-1.292819,-25.021938
491.211109,-1.473095,-27.920296
498.80965,-1.543677,-25.932646
522.317824,-1.500389,-28.79126
530.397555,-1.398211,-29.82938
546.933905,-1.386384,-31.829802
572.710106,-1.719438,-26.694111
572.710106,-1.484302,-25.628145
572.710106,-1.650746,-29.37606
599.701102,-2.04342,-30.104301
618.398148,-1.874855,-30.217793
627.964144,-2.055336,-32.782406
657.559182,-2.155897,-31.876741
667.73096,-2.180462,-30.585398
688.548992,-2.499127,-31.59581
720.999306,-2.597362,-34.356804
720.999306,-2.07983,-32.044865
720.999306,-2.640547,-34.561375
754.978956,-2.712974,-34.214333
778.517143,-3.043302,-33.814018
790.560019,-3.148141,-34.228615
827.817964,-3.204133,-37.633854
840.623474,-3.193296,-35.942215
866.831823,-3.444409,-36.586876
907.684348,-3.738622,-39.853371
907.684348,-3.161857,-42.127518
907.684348,-3.814017,-37.962151
950.462194,-3.955579,-37.905548
980.095015,-4.289648,-38.121483
995.256097,-4.44371,-38.003944
1042.161072,-4.402112,-40.906021
1058.282254,-4.300802,-40.064957
1091.27661,-4.438931,-40.317383
1142.706892,-4.929815,-38.612122
1142.706892,-4.906484,-38.581291
1142.706892,-4.401104,-39.251541
1196.561009,-5.510469,-39.204147
1233.86652,-5.387807,-41.218536
1252.953192,-5.581106,-41.39856
1312.003057,-5.871346,-40.304535
1332.298422,-5.908502,-40.535255
1373.835856,-6.480003,-39.383469
1438.582745,-6.701945,-41.733131
1438.582745,-5.625235,-41.715328
1438.582745,-6.493127,-42.474899
1506.381061,-6.990256,-41.153099
1553.345917,-7.240316,-39.659927
1577.374613,-7.605845,-37.009918
1651.713988,-7.830686,-40.080647
1677.26434,-7.660464,-40.397385
1729.556871,-8.142851,-38.946213
1811.068375,-8.485837,-40.0933
1811.068375,-8.679609,-40.128448
1811.068375,-7.46605,-42.119949
1896.421398,-8.909982,-39.03907
1955.546648,-9.243076,-37.762115
1985.796985,-9.526797,-31.366886
2079.384713,-9.821054,-33.70118
2111.5507,-9.750725,-35.047424
2177.383096,-10.388081,-32.890099
2280.0,-10.624626,-34.888187
2280.0,-9.283478,-37.401512
2280.0,-10.391506,-33.684143
2387.453089,-11.17468,-31.608974
2461.88737,-10.931392,-32.995499
2499.970287,-11.438822,-30.074898
2617.790257,-11.795027,-29.555941
2658.284834,-11.527914,-30.657236
2741.16291,-12.07785,-26.954945
2870.349938,-12.627359,-22.89818
2870.349938,-11.05703,-27.663164
2870.349938,-12.167961,-23.708065
3005.625363,-13.02862,-17.057724
3099.332571,-12.896418,-19.156212
3147.276123,-13.360469,-15.014885
3295.602677,-13.607698,-12.169632
3346.58233,-13.391798,-12.935113
3450.919646,-13.78801,-8.440472
3613.556478,-13.88532,-5.203549
3613.556478,-13.687054,7.092004
3613.556478,-12.5128,-14.215705
3783.858148,-14.067715,2.67515
3901.828533,-13.727869,6.630439
3962.185889,-13.84087,5.101156
4148.917957,-13.801943,8.189117
4213.097538,-13.729564,10.798587
4344.450436,-13.696574,11.457779
4549.198078,-13.369738,15.737146
4549.198078,-13.385376,15.248369
4549.198078,-12.819506,16.629103
4763.595178,-13.267094,19.379673
4912.111093,-13.026761,19.218403
4988.096502,-12.841551,21.908695
5223.178248,-12.456266,26.800671
5303.975553,-12.46767,26.967537
5469.339055,-12.280101,30.868397
5727.101063,-12.340315,30.640148
5727.101063,-12.20294,31.807585
5727.101063,-12.379038,24.813877
5997.011021,-11.571547,32.744499
6183.98148,-11.393373,34.700294
6279.641443,-10.889694,36.471169
6575.591827,-10.713062,38.522903
6677.309607,-11.007809,36.839638
6885.489922,-10.464853,38.089008
7209.993065,-10.713367,33.816399
7209.993065,-10.034101,39.035965
7209.993065,-9.687891,40.488045
7549.789569,-9.491245,41.69355
7785.171432,-9.646768,39.819485
7905.60019,-9.171354,40.767448
8278.179648,-8.468767,41.924461
8406.234747,-8.81747,43.993103
8668.318236,-8.354488,41.920952
9076.843488,-8.961661,37.432529
9076.843488,-7.808373,42.176292
9076.843488,-8.054478,43.031498
9504.621943,-7.455464,43.49276
9800.950151,-7.629846,42.212967
9952.560975,-7.1614,42.130524
10421.610723,-6.471722,42.257332
10582.82254,-6.636441,46.114151
10912.766104,-6.232825,44.862106
11427.068926,-6.316547,43.81723
11427.068926,-7.703569,41.075706
11427.068926,-6.506393,44.792122
11965.610093,-5.907766,41.965294
12338.665205,-5.576648,43.386063
12529.531923,-5.324306,43.527794
13120.030571,-5.17422,40.150997
13322.984224,-5.448026,41.860649
13738.358562,-5.065042,39.84919
14385.827454,-4.640229,41.223045
14385.827454,-4.488357,40.476471
14385.827454,-5.720387,41.24799
15063.810614,-4.374424,40.672516
15533.459174,-4.497261,37.334633
15773.746136,-4.189433,38.694633
16517.139889,-3.614048,39.007851
16772.643401,-3.808649,38.233742
17295.56871,-3.693361,37.526321
18110.683751,-3.328645,36.454803
18110.683751,-3.380171,36.752739
18110.683751,-4.340958,37.76923
18964.213981,-3.147226,36.659603
19555.466487,-3.18549,34.233475
19857.96985,-2.963009,34.729584
20793.847137,-2.738047,34.773273
21115.507001,-2.961283,33.640675
21773.830961,-2.594006,32.941544
22800.0,-2.382837,32.908257
22800.0,-3.257326,35.253616
22800.0,-2.548686,34.203999
23874.530895,-2.211048,31.031593
24618.873701,-2.200958,32.576332
24999.702872,-2.03485,28.210934
26177.90257,-1.668753,29.597164
26582.848346,-1.746165,31.979271
27411.629109,-1.680737,29.999069
28703.499388,-1.793421,27.417553
28703.499388,-1.753621,22.995529
28703.499388,-2.58594,30.360779
30056.253639,-1.572132,25.856253
30993.325712,-1.37461,24.612694
31472.761232,-1.302736,24.629143
32956.026773,-1.343285,23.233807
33465.823301,-1.415052,23.720032
34509.196464,-1.278601,22.177692
36135.564788,-1.095634,23.477982
36135.564788,-1.025498,22.401756
36135.564788,-1.681042,26.637058
37838.581489,-1.053491,20.360085
39018.285334,-1.041961,19.34499
39621.858895,-0.995981,19.498379
41489.179576,-0.805306,19.93585
42130.975381,-0.915753,19.731039
43444.504369,-0.886996,21.422575
45491.980781,-1.106919,21.961109
45491.980781,-0.741203,18.47493
45491.980781,-0.741461,16.465137
47635.951783,-0.729911,17.739365
49121.110932,-0.710025,15.735534
49880.965026,-0.617225,15.980692
52231.782483,-0.496881,17.696939
53039.755531,-0.538981,16.981133
54693.390553,-0.523198,16.910282
57271.010638,-0.625137,15.491019
57271.010638,-0.838591,17.403534
57271.010638,-0.61064,14.197817
58368.0,-0.54436,13.186984
58368.0,-0.730573,14.904488
58368.0,-0.57012,13.790783
